Frequency [Hz]	Re(Zyquad) [Ohm/m]	Im(Zyquad) [Ohm/m]
1.00000000e-06 1.03425805e-32 1.49433627e-31
1.00000000e-05 1.03425794e-30 1.34272736e-29
1.00000000e-05 1.03425794e-30 1.34272736e-29
1.05061444e-05 1.14160429e-30 1.47850155e-29
1.10379071e-05 1.26009220e-30 1.62799539e-29
1.15965846e-05 1.39087805e-30 1.79259421e-29
1.21835392e-05 1.53523826e-30 1.97382308e-29
1.48116732e-05 2.26901352e-30 2.88900699e-29
1.80067269e-05 3.35350053e-30 4.22812226e-29
2.41630731e-05 6.03855642e-30 7.50041207e-29
3.24242214e-05 1.08734627e-29 1.33022171e-28
3.93158183e-05 1.59868671e-29 1.93616370e-28
4.76721877e-05 2.35049242e-29 2.81783487e-28
9.72251892e-05 9.77656028e-29 1.12768445e-27
1.98286210e-04 4.06642840e-28 4.50595841e-27
2.12281104e-04 4.66069552e-28 5.14422342e-27
2.27263748e-04 5.34180869e-28 5.87280723e-27
5.21205773e-04 2.80960611e-27 2.94043544e-26
1.19533124e-03 1.47775174e-26 1.46848329e-25
2.16788703e-03 4.86066295e-26 4.64598655e-25
3.93174211e-03 1.59877629e-25 1.46758606e-24
6.14281227e-03 3.90253505e-25 3.47149153e-24
9.59730866e-03 9.52584372e-25 8.20324351e-24
3.01436547e-02 9.39627667e-24 7.40772236e-23
9.46765336e-02 9.26708863e-23 6.63223825e-22
1.16307961e-01 1.39844579e-22 9.82583037e-22
1.42881677e-01 2.11028996e-22 1.45521644e-21
3.86421138e-01 1.54243692e-21 9.66595550e-21
1.04506959e+00 1.12644451e-20 6.35504862e-20
3.10257342e+00 9.89094474e-20 4.91288681e-19
9.21083336e+00 8.64522615e-19 3.72548662e-18
1.03079784e+01 1.08135164e-18 4.58782090e-18
1.15358094e+01 1.35242193e-18 5.64820903e-18
3.62321841e+01 1.30498747e-17 4.59915357e-17
1.13799658e+02 1.23021444e-16 3.60105531e-16
3.19383759e+02 8.98708363e-16 2.20500785e-15
8.96364601e+02 6.25051322e-15 1.28409425e-14
9.04989258e+02 6.36223541e-15 1.30492746e-14
9.13696899e+02 6.47591837e-15 1.32609229e-14
1.43169692e+03 1.47654524e-14 2.80501328e-14
2.24336546e+03 3.32247981e-14 5.87082995e-14
3.51519134e+03 7.37397331e-14 1.21616167e-13
5.50805044e+03 1.61394846e-13 2.49498189e-13
7.86601493e+03 2.97550037e-13 4.38451527e-13
1.12334103e+04 5.44009164e-13 7.66623951e-13
1.60423682e+04 9.86751830e-13 1.33443829e-12
2.29100131e+04 1.77659385e-12 2.31380809e-12
2.58749266e+04 2.16827451e-12 2.79011141e-12
2.92235461e+04 2.64426297e-12 3.36324498e-12
3.30055293e+04 3.22233075e-12 4.05273118e-12
3.72769602e+04 3.92393336e-12 4.88201094e-12
4.75497312e+04 5.80666513e-12 7.07817643e-12
6.06534687e+04 8.57053797e-12 1.02516692e-11
6.85476631e+04 1.04136921e-11 1.23456049e-11
7.74693059e+04 1.26459138e-11 1.48641416e-11
8.75521219e+04 1.53481202e-11 1.78930316e-11
9.89472406e+04 1.86178749e-11 2.15353151e-11
1.03955400e+05 2.01240267e-11 2.32061646e-11
1.09217045e+05 2.17502637e-11 2.50060099e-11
1.11946908e+05 2.26113438e-11 2.59573809e-11
1.14745004e+05 2.35060514e-11 2.69447839e-11
1.17613039e+05 2.44356856e-11 2.79695804e-11
1.20552759e+05 2.54015956e-11 2.90331831e-11
1.32920658e+05 2.96064279e-11 3.36505933e-11
1.46557419e+05 3.44973696e-11 3.89990773e-11
1.69772172e+05 4.34039738e-11 4.86899655e-11
1.96664150e+05 5.45777911e-11 6.07792889e-11
2.06371461e+05 5.88248883e-11 6.53584229e-11
2.16557924e+05 6.33987657e-11 7.02815186e-11
2.27247190e+05 6.83243541e-11 7.55743753e-11
2.38464075e+05 7.36284752e-11 8.12647266e-11
2.60682679e+05 8.45318645e-11 9.29354669e-11
2.84971475e+05 9.70322665e-11 1.06277843e-10
3.11523350e+05 1.11361723e-10 1.21530999e-10
3.40549164e+05 1.27785802e-10 1.38968273e-10
3.72279424e+05 1.46608428e-10 1.58902090e-10
4.06966113e+05 1.68177400e-10 1.81689549e-10
4.44884692e+05 1.92890704e-10 2.07738810e-10
4.86336289e+05 2.21203730e-10 2.37516395e-10
5.03206323e+05 2.33101218e-10 2.50011043e-10
5.20661545e+05 2.45633712e-10 2.63162037e-10
5.77584306e+05 2.88029080e-10 3.07578441e-10
6.40730306e+05 3.37683063e-10 3.59480861e-10
7.10779916e+05 3.95831420e-10 4.20130270e-10
7.88487893e+05 4.63919497e-10 4.91000001e-10
8.74691509e+05 5.43637681e-10 5.73811511e-10
9.70319574e+05 6.36962847e-10 6.70576164e-10
1.07640244e+06 7.46206805e-10 7.83644049e-10
1.19408311e+06 8.74072923e-10 9.15761026e-10
1.28633209e+06 9.78994135e-10 1.02402013e-09
1.38570776e+06 1.09644212e-09 1.14506880e-09
1.49276071e+06 1.22790693e-09 1.28041758e-09
1.60808405e+06 1.37505541e-09 1.43175543e-09
1.73231670e+06 1.53975218e-09 1.60097073e-09
1.86614694e+06 1.72408300e-09 1.79017491e-09
2.01031626e+06 1.93038098e-09 2.00172874e-09
2.16562338e+06 2.16125592e-09 2.23827177e-09
2.28984302e+06 2.35215161e-09 2.43370518e-09
2.42118786e+06 2.55984090e-09 2.64619617e-09
2.56006661e+06 2.78579712e-09 2.87723334e-09
2.70691141e+06 3.03162263e-09 3.12843516e-09
2.86217919e+06 3.29906008e-09 3.40156137e-09
3.02635309e+06 3.59000473e-09 3.69852525e-09
3.19994397e+06 3.90651771e-09 4.02140703e-09
3.38349198e+06 4.25084063e-09 4.37246849e-09
3.63438185e+06 4.73706169e-09 4.86790713e-09
3.90387548e+06 5.27871449e-09 5.41946891e-09
4.19335239e+06 5.88210448e-09 6.03351083e-09
4.50429434e+06 6.55425329e-09 6.71710996e-09
5.19705805e+06 8.13699166e-09 8.32538684e-09
5.99636932e+06 1.01007536e-08 1.03186552e-08
6.21471296e+06 1.06615102e-08 1.08874784e-08
6.44100707e+06 1.12533227e-08 1.14876538e-08
6.67554115e+06 1.18779082e-08 1.21209094e-08
6.91861523e+06 1.25370786e-08 1.27890684e-08
7.17054028e+06 1.32327460e-08 1.34940545e-08
7.43163859e+06 1.39669280e-08 1.42378974e-08
7.70224418e+06 1.47417536e-08 1.50227387e-08
7.98270323e+06 1.55594694e-08 1.58508379e-08
8.57462995e+06 1.73331856e-08 1.76464783e-08
9.21044873e+06 1.93086566e-08 1.96455125e-08
9.89341421e+06 2.15087979e-08 2.18709781e-08
1.06270224e+07 2.39591253e-08 2.43485221e-08
1.11880235e+07 2.58918273e-08 2.63020464e-08
1.17786398e+07 2.79801433e-08 2.84122921e-08
1.24004349e+07 3.02365872e-08 3.06918319e-08
1.30550545e+07 3.26746784e-08 3.31542468e-08
1.31806679e+07 3.31497171e-08 3.36339540e-08
1.33074899e+07 3.36316509e-08 3.41206015e-08
1.41443037e+07 3.68693748e-08 3.73894353e-08
1.50337389e+07 4.04182694e-08 4.09714098e-08
1.59791044e+07 4.43082069e-08 4.48965219e-08
1.69839172e+07 4.85719253e-08 4.91976420e-08
1.75097756e+07 5.08550336e-08 5.15003299e-08
1.80519156e+07 5.32453029e-08 5.39107892e-08
1.86108415e+07 5.57477580e-08 5.64340636e-08
1.91870729e+07 5.83676594e-08 5.90754330e-08
1.97811456e+07 6.11105137e-08 6.18404246e-08
2.03936121e+07 6.39820860e-08 6.47348240e-08
2.10250419e+07 6.69884111e-08 6.77646877e-08
2.16760221e+07 7.01358068e-08 7.09363557e-08
2.30390737e+07 7.68805753e-08 7.77319616e-08
2.44878381e+07 8.42731084e-08 8.51785501e-08
2.52460338e+07 8.82314840e-08 8.91652234e-08
2.60277050e+07 9.23755620e-08 9.33384810e-08
2.68335783e+07 9.67140475e-08 9.77070555e-08
2.76644032e+07 1.01256053e-07 1.02280088e-07
2.94040218e+07 1.10989231e-07 1.12078250e-07
3.12530326e+07 1.21656902e-07 1.22815020e-07
3.32183147e+07 1.33348718e-07 1.34580309e-07
3.53071795e+07 1.46162928e-07 1.47472644e-07
3.59126158e+07 1.49949883e-07 1.51282249e-07
3.65284339e+07 1.53834857e-07 1.55190264e-07
3.71548118e+07 1.57820385e-07 1.59199231e-07
3.77919307e+07 1.61909068e-07 1.63311757e-07
3.90991311e+07 1.70406640e-07 1.71858257e-07
4.04515468e+07 1.79349757e-07 1.80852006e-07
4.18507417e+07 1.88761763e-07 1.90316409e-07
4.32983340e+07 1.98667228e-07 2.00276095e-07
4.47959977e+07 2.09092005e-07 2.10756983e-07
4.63454646e+07 2.20063305e-07 2.21786349e-07
5.30981448e+07 2.70009375e-07 2.71985631e-07
6.08347117e+07 3.31280175e-07 3.33546837e-07
6.18778860e+07 3.39857253e-07 3.42163096e-07
6.29389482e+07 3.48656229e-07 3.51001929e-07
6.40182053e+07 3.57682839e-07 3.60069086e-07
6.51159690e+07 3.66942970e-07 3.69370465e-07
6.73682917e+07 3.86188102e-07 3.88700245e-07
6.96985209e+07 4.06441829e-07 4.09041573e-07
7.21093513e+07 4.27756982e-07 4.30447383e-07
7.46035709e+07 4.50189160e-07 4.52973381e-07
7.71840640e+07 4.73796871e-07 4.76678187e-07
7.98538149e+07 4.98641691e-07 5.01623490e-07
8.54735461e+07 5.52305234e-07 5.55498648e-07
9.14887673e+07 6.11739959e-07 6.15160026e-07
9.79273111e+07 6.77566233e-07 6.81229067e-07
1.04818969e+08 7.50471091e-07 7.54393957e-07
1.07809871e+08 7.82876918e-07 7.86912692e-07
1.10886116e+08 8.16681223e-07 8.20833162e-07
1.14050137e+08 8.51944335e-07 8.56215791e-07
1.17304442e+08 8.88729182e-07 8.93123605e-07
1.21575806e+08 9.37791623e-07 9.42347501e-07
1.26002702e+08 9.89561041e-07 9.94284324e-07
1.30590793e+08 1.04418673e-06 1.04908359e-06
1.35345949e+08 1.10182624e-06 1.10690307e-06
1.45382009e+08 1.22682070e-06 1.23227764e-06
1.56162253e+08 1.36598722e-06 1.37185283e-06
1.61848533e+08 1.44138009e-06 1.44746142e-06
1.67741866e+08 1.52093208e-06 1.52723710e-06
1.73849790e+08 1.60487256e-06 1.61140953e-06
1.80180120e+08 1.69344355e-06 1.70022105e-06
1.86740954e+08 1.78690041e-06 1.79392733e-06
1.93540686e+08 1.88551258e-06 1.89279814e-06
1.97032844e+08 1.93684014e-06 1.94425859e-06
2.00588013e+08 1.98956435e-06 1.99711812e-06
2.04207330e+08 2.04372318e-06 2.05141477e-06
2.07891952e+08 2.09935568e-06 2.10718760e-06
2.15461847e+08 2.21520309e-06 2.22332346e-06
2.23307382e+08 2.33744054e-06 2.34586003e-06
2.31438594e+08 2.46642039e-06 2.47515009e-06
2.39865884e+08 2.60251444e-06 2.61156586e-06
2.48600035e+08 2.74611499e-06 2.75550005e-06
2.57652218e+08 2.89763596e-06 2.90736705e-06
2.67034016e+08 3.05751410e-06 3.06760406e-06
2.76757430e+08 3.22621023e-06 3.23667239e-06
2.81751112e+08 3.31401596e-06 3.32466937e-06
2.86834899e+08 3.40421058e-06 3.41505877e-06
2.92010415e+08 3.49685907e-06 3.50790563e-06
2.97279315e+08 3.59202819e-06 3.60327676e-06
3.08104040e+08 3.79020438e-06 3.80186823e-06
3.19322922e+08 3.99931032e-06 4.01140489e-06
3.30950312e+08 4.21994866e-06 4.23248999e-06
3.43001087e+08 4.45275528e-06 4.46576000e-06
3.49190040e+08 4.57392994e-06 4.58717280e-06
3.55490663e+08 4.69840112e-06 4.71188651e-06
3.61904971e+08 4.82625847e-06 4.83999087e-06
3.68435017e+08 4.95759410e-06 4.97157807e-06
3.80510171e+08 5.20353370e-06 5.21798316e-06
3.92981080e+08 5.46167020e-06 5.47660077e-06
4.05860711e+08 5.73260836e-06 5.74803621e-06
4.19162463e+08 6.01698290e-06 6.03292475e-06
4.32900168e+08 6.31546005e-06 6.33193317e-06
4.47088115e+08 6.62873903e-06 6.64576131e-06
4.61741060e+08 6.95755374e-06 6.97514366e-06
4.76874244e+08 7.30267448e-06 7.32085114e-06
5.08644800e+08 8.04510798e-06 8.06451811e-06
5.42531989e+08 8.86300029e-06 8.88372847e-06
5.60313029e+08 9.30261022e-06 9.32403095e-06
5.78676828e+08 9.76401946e-06 9.78615611e-06
5.97642486e+08 1.02483088e-05 1.02711855e-05
6.17229727e+08 1.07566127e-05 1.07802545e-05
6.27262782e+08 1.10201398e-05 1.10441738e-05
6.37458924e+08 1.12901216e-05 1.13145544e-05
6.47820804e+08 1.15667162e-05 1.15915543e-05
6.58351116e+08 1.18500854e-05 1.18753358e-05
6.69052598e+08 1.21403952e-05 1.21660647e-05
6.79928033e+08 1.24378155e-05 1.24639112e-05
6.90980247e+08 1.27425205e-05 1.27690495e-05
7.02212115e+08 1.30546886e-05 1.30816581e-05
7.48995244e+08 1.43817148e-05 1.44105217e-05
7.98895181e+08 1.58436041e-05 1.58743747e-05
8.11881204e+08 1.62317252e-05 1.62630075e-05
8.25078314e+08 1.66293521e-05 1.66611547e-05
8.38489943e+08 1.70367177e-05 1.70690492e-05
8.52119578e+08 1.74540604e-05 1.74869298e-05
8.65970762e+08 1.78816246e-05 1.79150409e-05
8.80047097e+08 1.83196607e-05 1.83536329e-05
8.94352242e+08 1.87684249e-05 1.88029625e-05
9.08889917e+08 1.92281801e-05 1.92632925e-05
9.38678037e+08 2.01817466e-05 2.02180377e-05
9.69442438e+08 2.11825934e-05 2.12201030e-05
9.85200702e+08 2.17014750e-05 2.17396092e-05
1.00121512e+09 2.22330647e-05 2.22718339e-05
1.01748985e+09 2.27776735e-05 2.28170884e-05
1.03402912e+09 2.33356205e-05 2.33756919e-05
1.03899183e+09 2.35039124e-05 2.35441808e-05
1.04397836e+09 2.36734178e-05 2.37138842e-05
1.07248271e+09 2.46501170e-05 2.46917158e-05
1.10176533e+09 2.56671051e-05 2.57098680e-05
1.13184747e+09 2.67260438e-05 2.67700035e-05
1.16275096e+09 2.78286634e-05 2.78738534e-05
1.19449822e+09 2.89767655e-05 2.90232203e-05
1.22711230e+09 3.01722262e-05 3.02199812e-05
1.26061687e+09 3.14169988e-05 3.14660902e-05
1.29503622e+09 3.27131172e-05 3.27635823e-05
1.35149248e+09 3.48765563e-05 3.49292761e-05
1.41040990e+09 3.71830499e-05 3.72381245e-05
1.44082490e+09 3.83928740e-05 3.84491648e-05
1.47189579e+09 3.96420566e-05 3.96995901e-05
1.48768161e+09 4.02818059e-05 4.03399708e-05
1.50363672e+09 4.09318781e-05 4.09906814e-05
1.51976295e+09 4.15924399e-05 4.16518884e-05
1.53606212e+09 4.22636604e-05 4.23237612e-05
1.67290860e+09 4.80383733e-05 4.81039510e-05
1.82194661e+09 5.46020098e-05 5.46735511e-05
1.84148665e+09 5.54831506e-05 5.55554733e-05
1.86123625e+09 5.63785093e-05 5.64516217e-05
1.88119767e+09 5.72883152e-05 5.73622256e-05
1.90137317e+09 5.82128015e-05 5.82875183e-05
1.94237563e+09 6.01067665e-05 6.01831216e-05
1.98426228e+09 6.20623456e-05 6.21403733e-05
2.07076490e+09 6.61664285e-05 6.62479070e-05
2.16103853e+09 7.05418804e-05 7.06269541e-05
2.20764058e+09 7.28369315e-05 7.29238584e-05
2.25524758e+09 7.52066444e-05 7.52954622e-05
2.30388122e+09 7.76534480e-05 7.77441950e-05
2.35356362e+09 8.01798502e-05 8.02725651e-05
2.40431741e+09 8.27884405e-05 8.28831627e-05
2.45616568e+09 8.54818925e-05 8.55786617e-05
2.50913204e+09 8.82629671e-05 8.83618236e-05
2.56324061e+09 9.11345147e-05 9.12354991e-05
2.67999499e+09 9.74341811e-05 9.75397409e-05
2.80206748e+09 1.04169283e-04 1.04279600e-04
2.86517328e+09 1.07709447e-04 1.07822213e-04
2.92970031e+09 1.11369917e-04 1.11485177e-04
2.99568055e+09 1.15154781e-04 1.15272582e-04
3.06314675e+09 1.19068265e-04 1.19188654e-04
3.20267162e+09 1.27298729e-04 1.27424435e-04
3.34855177e+09 1.36098093e-04 1.36229302e-04
3.50107670e+09 1.45505683e-04 1.45642580e-04
3.66054906e+09 1.55563544e-04 1.55706308e-04
3.74298887e+09 1.60850254e-04 1.60996019e-04
3.82728532e+09 1.66316628e-04 1.66465435e-04
3.91348022e+09 1.71968770e-04 1.72120661e-04
4.00161633e+09 1.77812996e-04 1.77968010e-04
4.18388803e+09 1.90104034e-04 1.90265408e-04
4.37446213e+09 2.03244679e-04 2.03412550e-04
4.47298009e+09 2.10151804e-04 2.10322970e-04
4.57371678e+09 2.17293669e-04 2.17468155e-04
4.67672218e+09 2.24678252e-04 2.24856081e-04
4.78204739e+09 2.32313805e-04 2.32494996e-04
4.88974464e+09 2.40208857e-04 2.40393426e-04
4.99986735e+09 2.48372230e-04 2.48560188e-04
5.05585528e+09 2.52557375e-04 2.52747030e-04
5.11247016e+09 2.56813045e-04 2.57004397e-04
5.16971900e+09 2.61140428e-04 2.61333478e-04
5.22760891e+09 2.65540733e-04 2.65735480e-04
5.38910365e+09 2.77945110e-04 2.78144483e-04
5.55558739e+09 2.90928982e-04 2.91132954e-04
5.64074812e+09 2.97646642e-04 2.97852896e-04
5.72721426e+09 3.04519428e-04 3.04727950e-04
5.81500583e+09 3.11550923e-04 3.11761696e-04
5.90414314e+09 3.18744794e-04 3.18957797e-04
6.27456715e+09 3.49220356e-04 3.49442009e-04
6.66823145e+09 3.82610078e-04 3.82839762e-04
6.71914522e+09 3.87002299e-04 3.87232929e-04
6.77044773e+09 3.91444947e-04 3.91676508e-04
6.82214194e+09 3.95938602e-04 3.96171079e-04
6.87423085e+09 4.00483850e-04 4.00717227e-04
6.97960486e+09 4.09731502e-04 4.09966627e-04
7.08659412e+09 4.19192726e-04 4.19429524e-04
7.19522341e+09 4.28872456e-04 4.29110848e-04
7.30551786e+09 4.38775740e-04 4.39015639e-04
7.41750299e+09 4.48907745e-04 4.49149056e-04
7.53120473e+09 4.59273753e-04 4.59516377e-04
7.76386367e+09 4.80729536e-04 4.80974449e-04
8.00371006e+09 5.03187862e-04 5.03434561e-04
8.12639768e+09 5.14807541e-04 5.15054921e-04
8.25096595e+09 5.26695600e-04 5.26943507e-04
8.37744371e+09 5.38858242e-04 5.39106510e-04
8.50586023e+09 5.51301811e-04 5.51550264e-04
8.57115413e+09 5.57665078e-04 5.57913553e-04
8.63694926e+09 5.64101808e-04 5.64350257e-04
8.70324945e+09 5.70612851e-04 5.70861222e-04
8.77005859e+09 5.77199065e-04 5.77447306e-04
8.90521934e+09 5.90600488e-04 5.90848306e-04
9.04246315e+09 6.04313146e-04 6.04560310e-04
9.18182210e+09 6.18344272e-04 6.18590537e-04
9.32332879e+09 6.32701266e-04 6.32946371e-04
9.46701634e+09 6.47391701e-04 6.47635369e-04
9.61291834e+09 6.62423327e-04 6.62665264e-04
9.91150275e+09 6.93542053e-04 6.93779572e-04
1.02193614e+10 7.26123122e-04 7.26354815e-04
1.05367824e+10 7.60235305e-04 7.60459592e-04
1.08640627e+10 7.95950611e-04 7.96165719e-04
1.09989976e+10 8.10834467e-04 8.11045323e-04
1.11356083e+10 8.25996750e-04 8.26203015e-04
1.12739159e+10 8.41442672e-04 8.41643995e-04
1.14139412e+10 8.57177545e-04 8.57373555e-04
1.15557057e+10 8.73206779e-04 8.73397090e-04
1.16992309e+10 8.89535885e-04 8.89720094e-04
1.18445388e+10 9.06170478e-04 9.06348163e-04
1.19916515e+10 9.23116279e-04 9.23287000e-04
1.22880460e+10 9.57574809e-04 9.57730379e-04
1.25917665e+10 9.93320233e-04 9.93458690e-04
1.29029939e+10 1.03040066e-03 1.03051987e-03
1.32219139e+10 1.06886601e-03 1.06896364e-03
1.34671799e+10 1.09876684e-03 1.09884657e-03
1.37169956e+10 1.12950459e-03 1.12956488e-03
1.39714453e+10 1.16110271e-03 1.16114194e-03
1.42306151e+10 1.19358530e-03 1.19360175e-03
1.44945925e+10 1.22697717e-03 1.22696899e-03
1.47634666e+10 1.26130379e-03 1.26126902e-03
1.50373284e+10 1.29659137e-03 1.29652793e-03
1.53162702e+10 1.33286684e-03 1.33277251e-03
1.55018714e+10 1.35718855e-03 1.35707271e-03
1.56897217e+10 1.38195438e-03 1.38181597e-03
1.58798483e+10 1.40717245e-03 1.40701038e-03
1.60722789e+10 1.43285104e-03 1.43266416e-03
1.62670414e+10 1.45899856e-03 1.45878569e-03
1.64641639e+10 1.48562358e-03 1.48538349e-03
1.66636752e+10 1.51273486e-03 1.51246625e-03
1.68656041e+10 1.54034127e-03 1.54004281e-03
1.72454370e+10 1.59272029e-03 1.59236294e-03
1.76338243e+10 1.64688193e-03 1.64646057e-03
1.78312858e+10 1.67465015e-03 1.67419474e-03
1.80309584e+10 1.70288697e-03 1.70239609e-03
1.82328670e+10 1.73160031e-03 1.73107249e-03
1.84370365e+10 1.76079824e-03 1.76023194e-03
1.92768347e+10 1.88260178e-03 1.88186508e-03
2.01548853e+10 2.01283975e-03 2.01190325e-03
2.03805773e+10 2.04678484e-03 2.04579328e-03
2.06087966e+10 2.08130300e-03 2.08025419e-03
2.08395715e+10 2.11640392e-03 2.11529559e-03
2.10729306e+10 2.15209747e-03 2.15092726e-03
2.13089028e+10 2.18839367e-03 2.18715915e-03
2.15475174e+10 2.22530273e-03 2.22400136e-03
2.17888040e+10 2.26283501e-03 2.26146418e-03
2.20327925e+10 2.30100107e-03 2.29955805e-03
2.25289965e+10 2.37927760e-03 2.37768169e-03
2.30363756e+10 2.46022035e-03 2.45845947e-03
2.35551815e+10 2.54392038e-03 2.54198158e-03
2.40856715e+10 2.63047187e-03 2.62834124e-03
2.42918792e+10 2.66437696e-03 2.66216901e-03
2.44998523e+10 2.69871967e-03 2.69643216e-03
2.47096059e+10 2.73350567e-03 2.73113630e-03
2.49211553e+10 2.76874070e-03 2.76628710e-03
2.52464697e+10 2.82321894e-03 2.82063251e-03
2.55760306e+10 2.87877071e-03 2.87604558e-03
2.59098935e+10 2.93541722e-03 2.93254729e-03
2.62481146e+10 2.99318011e-03 2.99015903e-03
2.69378595e+10 3.11214377e-03 3.10880022e-03
2.76457294e+10 3.23584358e-03 3.23214880e-03
2.80066097e+10 3.29952837e-03 3.29564646e-03
2.83722007e+10 3.36446875e-03 3.36039157e-03
2.87425641e+10 3.43068954e-03 3.42640866e-03
2.91177622e+10 3.49821609e-03 3.49372270e-03
2.94978579e+10 3.56707425e-03 3.56235919e-03
2.98829154e+10 3.63729036e-03 3.63234410e-03
3.00773249e+10 3.67291603e-03 3.66785047e-03
3.02729992e+10 3.70889131e-03 3.70370392e-03
3.04699466e+10 3.74521965e-03 3.73990784e-03
3.06681752e+10 3.78190453e-03 3.77646566e-03
3.23011419e+10 4.08864782e-03 4.08209085e-03
3.40210581e+10 4.42032794e-03 4.41245013e-03
3.42423892e+10 4.46364100e-03 4.45558213e-03
3.44651602e+10 4.50737948e-03 4.49913575e-03
3.46893805e+10 4.55154756e-03 4.54311512e-03
3.49150595e+10 4.59614948e-03 4.58752439e-03
3.53708317e+10 4.68667204e-03 4.67764949e-03
3.58325535e+10 4.77898193e-03 4.76954516e-03
3.63003024e+10 4.87311461e-03 4.86324620e-03
3.67741572e+10 4.96910627e-03 4.95878806e-03
3.72541975e+10 5.06699381e-03 5.05620691e-03
3.77405042e+10 5.16681487e-03 5.15553963e-03
3.84492024e+10 5.31345833e-03 5.30144663e-03
3.91712086e+10 5.46427570e-03 5.45148295e-03
3.99067728e+10 5.61938648e-03 5.60576545e-03
4.06561496e+10 5.77891361e-03 5.76441429e-03
4.10360985e+10 5.86037271e-03 5.84541457e-03
4.14195982e+10 5.94298362e-03 5.92755304e-03
4.18066820e+10 6.02676273e-03 6.01084571e-03
4.21973831e+10 6.11172668e-03 6.09530877e-03
