Frequency [Hz]	Re(Zxquad) [Ohm/m]	Im(Zxquad) [Ohm/m]
1.00000000e-02 3.36770177e-33 2.25926801e-27
1.00000000e-01 3.36770622e-30 2.25926801e-25
1.00000000e+00 3.36771057e-27 2.25926795e-23
1.00000000e+02 3.36660597e-21 2.25865961e-19
1.12201845e+02 4.75505051e-21 2.84328575e-19
1.25892541e+02 6.71596397e-21 3.57917057e-19
1.41253754e+02 9.48526500e-21 4.50541106e-19
1.58489319e+02 1.33960061e-20 5.67118789e-19
1.77827941e+02 1.89182962e-20 7.13835322e-19
1.99526231e+02 2.67155773e-20 8.98467517e-19
2.23872114e+02 3.77239130e-20 1.13079012e-18
2.51188643e+02 5.32636219e-20 1.42308399e-18
2.81838293e+02 7.51963212e-20 1.79077058e-18
3.16227766e+02 1.06145615e-19 2.25320237e-18
3.54813389e+02 1.49806804e-19 2.83464483e-18
3.98107171e+02 2.11380803e-19 3.56549203e-18
4.46683592e+02 2.98180758e-19 4.48376466e-18
5.01187234e+02 4.20477850e-19 5.63694555e-18
5.62341325e+02 5.92676565e-19 7.08421172e-18
6.30957344e+02 8.34940764e-19 8.89912275e-18
7.07945784e+02 1.17543121e-18 1.11728175e-17
7.94328235e+02 1.65336330e-18 1.40177519e-17
8.91250938e+02 2.32314892e-18 1.75719705e-17
1.00000000e+03 3.25994420e-18 2.20038346e-17
1.12201845e+03 4.56697385e-18 2.75170192e-17
1.25892541e+03 6.38502262e-18 3.43554263e-17
1.41253754e+03 8.90443959e-18 4.28074377e-17
1.58489319e+03 1.23798399e-17 5.32086536e-17
1.77827941e+03 1.71473413e-17 6.59419767e-17
1.99526231e+03 2.36435692e-17 8.14336913e-17
2.23872114e+03 3.24247600e-17 1.00144237e-16
2.51188643e+03 4.41831486e-17 1.22552922e-16
2.81838293e+03 5.97566813e-17 1.49137183e-16
3.16227766e+03 8.01274691e-17 1.80349298e-16
3.54813389e+03 1.06405037e-16 2.16596674e-16
3.98107171e+03 1.39793108e-16 2.58235001e-16
4.46683592e+03 1.81543588e-16 3.05585488e-16
5.01187234e+03 2.32907739e-16 3.58986191e-16
5.62341325e+03 2.95099923e-16 4.18882316e-16
6.30957344e+03 3.69291090e-16 4.85952248e-16
7.07945784e+03 4.56645586e-16 5.61257863e-16
7.94328235e+03 5.58406897e-16 6.46403221e-16
8.91250938e+03 6.76029058e-16 7.43687031e-16
1.00000000e+04 8.11344628e-16 8.56240532e-16
1.12201845e+04 9.66759532e-16 9.88150018e-16
1.25892541e+04 1.14546878e-15 1.14456872e-15
1.41253754e+04 1.35169225e-15 1.33182397e-15
1.58489319e+04 1.59093285e-15 1.55752317e-15
1.77827941e+04 1.87025886e-15 1.83065845e-15
1.99526231e+04 2.19860686e-15 2.16170795e-15
2.23872114e+04 2.58709363e-15 2.56273499e-15
2.51188643e+04 3.04931715e-15 3.04749744e-15
2.81838293e+04 3.60162499e-15 3.63159896e-15
3.16227766e+04 4.26333805e-15 4.33273953e-15
3.54813389e+04 5.05694642e-15 5.17114432e-15
3.98107171e+04 6.00833874e-15 6.17025640e-15
4.46683592e+04 7.14717632e-15 7.35775396e-15
5.01187234e+04 8.50755350e-15 8.76689554e-15
5.62341325e+04 1.01290718e-14 1.04381236e-14
6.30957344e+04 1.20583894e-14 1.24208026e-14
7.07945784e+04 1.43512296e-14 1.47749817e-14
7.94328235e+04 1.70745471e-14 1.75730570e-14
8.91250938e+04 2.03092381e-14 2.09016817e-14
1.00000000e+05 2.41524089e-14 2.48637096e-14
1.12201845e+05 2.87201661e-14 2.95809185e-14
1.25892541e+05 3.41505977e-14 3.51975222e-14
1.41253754e+05 4.06074478e-14 4.18847334e-14
1.58489319e+05 4.82847685e-14 4.98463998e-14
1.77827941e+05 5.74127591e-14 5.93256873e-14
1.99526231e+05 6.82648748e-14 7.06128403e-14
2.23872114e+05 8.11662425e-14 8.40542213e-14
2.51188643e+05 9.65035046e-14 1.00063002e-13
2.81838293e+05 1.14736370e-13 1.19131987e-13
3.16227766e+05 1.36411294e-13 1.41849052e-13
3.54813389e+05 1.62177783e-13 1.68915691e-13
3.98107171e+05 1.92807825e-13 2.01169212e-13
4.46683592e+05 2.29219012e-13 2.39609285e-13
5.01187234e+05 2.72502014e-13 2.85429704e-13
5.62341325e+05 3.23953217e-13 3.40056440e-13
6.30957344e+05 3.85113514e-13 4.05193257e-13
7.07945784e+05 4.57814415e-13 4.82876409e-13
7.94328235e+05 5.44232854e-13 5.75540239e-13
8.91250938e+05 6.46956323e-13 6.86095914e-13
1.00000000e+06 7.69060304e-13 8.18025950e-13
1.12201845e+06 9.14200291e-13 9.75497753e-13
1.25892541e+06 1.08672117e-12 1.16350008e-12
1.41253754e+06 1.29178723e-12 1.38800715e-12
1.58489319e+06 1.53553670e-12 1.65617599e-12
1.77827941e+06 1.82526541e-12 1.97658416e-12
1.99526231e+06 2.16964512e-12 2.35951593e-12
2.23872114e+06 2.57898302e-12 2.81730725e-12
2.51188643e+06 3.06553022e-12 3.36476178e-12
2.81838293e+06 3.64384832e-12 4.01965284e-12
3.16227766e+06 4.33124533e-12 4.80332954e-12
3.54813389e+06 5.14829328e-12 5.74144893e-12
3.98107171e+06 6.11963979e-12 6.86456347e-12
4.46683592e+06 7.27376714e-12 8.21068611e-12
5.01187234e+06 8.64580479e-12 9.82359781e-12
5.62341325e+06 1.02766234e-11 1.17574103e-11
6.30957344e+06 1.22150346e-11 1.40769761e-11
7.07945784e+06 1.45190588e-11 1.68605009e-11
7.94328235e+06 1.72576643e-11 2.02023517e-11
8.91250938e+06 2.05128334e-11 2.42164707e-11
1.00000000e+07 2.43820206e-11 2.90405271e-11
1.12201845e+07 2.89810745e-11 3.48409702e-11
1.25892541e+07 3.44477128e-11 4.18191865e-11
1.41253754e+07 4.09456553e-11 5.02190048e-11
1.58489319e+07 4.86695390e-11 6.03358548e-11
1.77827941e+07 5.78507647e-11 7.25279502e-11
1.99526231e+07 6.87644517e-11 8.72299561e-11
2.23872114e+07 8.17377125e-11 1.04969706e-10
2.51188643e+07 9.71594988e-11 1.26388663e-10
2.81838293e+07 1.15492319e-10 1.52266992e-10
3.16227766e+07 1.37286185e-10 1.83554290e-10
3.54813389e+07 1.63195219e-10 2.21407299e-10
3.98107171e+07 1.93997423e-10 2.67236219e-10
4.46683592e+07 2.30618241e-10 3.22761612e-10
5.01187234e+07 2.74158611e-10 3.90084400e-10
5.62341325e+07 3.25928429e-10 4.71772002e-10
6.30957344e+07 3.87486426e-10 5.70964440e-10
7.07945784e+07 4.60687757e-10 6.91505116e-10
7.94328235e+07 5.47740792e-10 8.38102116e-10
8.91250938e+07 6.51274943e-10 1.01652732e-09
1.00000000e+08 7.74421728e-10 1.23386230e-09
1.12201845e+08 9.20911708e-10 1.49880228e-09
1.25892541e+08 1.09519055e-09 1.82203198e-09
1.41253754e+08 1.30255806e-09 2.21669079e-09
1.58489319e+08 1.54933501e-09 2.69894869e-09
1.77827941e+08 1.84306350e-09 3.28871980e-09
1.99526231e+08 2.19274792e-09 4.01054685e-09
2.23872114e+08 2.60914535e-09 4.89469812e-09
2.51188643e+08 3.10511604e-09 5.97852865e-09
2.81838293e+08 3.69604733e-09 7.30816992e-09
3.16227766e+08 4.40036757e-09 8.94062847e-09
3.54813389e+08 5.24017082e-09 1.09463933e-08
3.98107171e+08 6.24197830e-09 1.34126769e-08
4.46683592e+08 7.43766942e-09 1.64474444e-08
5.01187234e+08 8.86562422e-09 2.01844258e-08
5.62341325e+08 1.05721304e-08 2.47893506e-08
6.30957344e+08 1.26131233e-08 3.04677065e-08
7.07945784e+08 1.50563471e-08 3.74743956e-08
7.94328235e+08 1.79840511e-08 4.61257542e-08
8.91250938e+08 2.14963716e-08 5.68145153e-08
1.00000000e+09 2.57155930e-08 7.00284352e-08
1.12201845e+09 3.07915472e-08 8.63734797e-08
1.25892541e+09 3.69084908e-08 1.06602682e-07
1.41253754e+09 4.42939121e-08 1.31652051e-07
1.58489319e+09 5.32298709e-08 1.62685237e-07
1.77827941e+09 6.40676760e-08 2.01149065e-07
1.99526231e+09 7.72469789e-08 2.48842528e-07
2.23872114e+09 9.33207350e-08 3.08002445e-07
2.51188643e+09 1.12987982e-07 3.81409681e-07
2.81838293e+09 1.37137060e-07 4.72520692e-07
3.16227766e+09 1.66902820e-07 5.85630163e-07
3.54813389e+09 2.03742566e-07 7.26071660e-07
3.98107171e+09 2.49537165e-07 9.00464520e-07
4.46683592e+09 3.06725885e-07 1.11701667e-06
5.01187234e+09 3.78486479e-07 1.38589449e-06
5.62341325e+09 4.68975782e-07 1.71967233e-06
6.30957344e+09 5.83651016e-07 2.13387531e-06
7.07945784e+09 7.29698284e-07 2.64762957e-06
7.94328235e+09 9.16602479e-07 3.28443343e-06
8.91250938e+09 1.15690231e-06 4.07306013e-06
1.00000000e+10 1.46718500e-06 5.04859716e-06
1.12201845e+10 1.86938691e-06 6.25361701e-06
1.25892541e+10 2.39247748e-06 7.73945758e-06
1.41253754e+10 3.07461196e-06 9.56756637e-06
1.58489319e+10 3.96583841e-06 1.18108291e-05
1.77827941e+10 5.13143130e-06 1.45547609e-05
1.99526231e+10 6.65588683e-06 1.78983917e-05
2.23872114e+10 8.64754597e-06 2.19546323e-05
2.51188643e+10 1.12436997e-05 2.68498887e-05
2.81838293e+10 1.46158774e-05 3.27227207e-05
3.16227766e+10 1.89748358e-05 3.97214602e-05
3.54813389e+10 2.45746015e-05 4.80009520e-05
3.98107171e+10 3.17148413e-05 5.77189813e-05
4.46683592e+10 4.07409608e-05 6.90334764e-05
5.01187234e+10 5.20417663e-05 8.21021354e-05
5.62341325e+10 6.60453146e-05 9.70865306e-05
6.30957344e+10 8.32146591e-05 1.14162770e-04
7.07945784e+10 1.04046341e-04 1.33540278e-04
7.94328235e+10 1.29075337e-04 1.55489215e-04
8.91250938e+10 1.58890481e-04 1.80375700e-04
1.00000000e+11 1.94164105e-04 2.08702867e-04
1.00980000e+11 1.97427215e-04 2.11280778e-04
1.01960000e+11 2.00703506e-04 2.13863304e-04
1.02940000e+11 2.03992828e-04 2.16450552e-04
1.03920000e+11 2.07295037e-04 2.19042627e-04
1.04900000e+11 2.10610000e-04 2.21639633e-04
1.05880000e+11 2.13937587e-04 2.24241676e-04
1.06860000e+11 2.17277676e-04 2.26848859e-04
1.07840000e+11 2.20630150e-04 2.29461286e-04
1.08820000e+11 2.23994900e-04 2.32079061e-04
1.09800000e+11 2.27371822e-04 2.34702285e-04
1.10780000e+11 2.30760818e-04 2.37331060e-04
1.11760000e+11 2.34161795e-04 2.39965486e-04
1.12201845e+11 2.35699064e-04 2.41155125e-04
1.12740000e+11 2.37574666e-04 2.42605663e-04
1.13720000e+11 2.40999349e-04 2.45251690e-04
1.14700000e+11 2.44435766e-04 2.47903664e-04
1.15680000e+11 2.47883845e-04 2.50561681e-04
1.16660000e+11 2.51343520e-04 2.53225837e-04
1.17640000e+11 2.54814726e-04 2.55896224e-04
1.18620000e+11 2.58297406e-04 2.58572936e-04
1.19600000e+11 2.61791505e-04 2.61256064e-04
1.20580000e+11 2.65296973e-04 2.63945697e-04
1.21560000e+11 2.68813764e-04 2.66641925e-04
1.22540000e+11 2.72341835e-04 2.69344833e-04
1.23520000e+11 2.75881148e-04 2.72054508e-04
1.24500000e+11 2.79431667e-04 2.74771033e-04
1.25480000e+11 2.82993362e-04 2.77494491e-04
1.25892541e+11 2.84496030e-04 2.78643052e-04
1.26460000e+11 2.86566203e-04 2.80224963e-04
1.27440000e+11 2.90150167e-04 2.82962529e-04
1.28420000e+11 2.93745230e-04 2.85707267e-04
1.29400000e+11 2.97351375e-04 2.88459253e-04
1.30380000e+11 3.00968585e-04 2.91218562e-04
1.31360000e+11 3.04596847e-04 2.93985268e-04
1.32340000e+11 3.08236151e-04 2.96759442e-04
1.33320000e+11 3.11886489e-04 2.99541156e-04
1.34300000e+11 3.15547856e-04 3.02330477e-04
1.35280000e+11 3.19220249e-04 3.05127474e-04
1.36260000e+11 3.22903667e-04 3.07932212e-04
1.37240000e+11 3.26598112e-04 3.10744755e-04
1.38220000e+11 3.30303589e-04 3.13565166e-04
1.39200000e+11 3.34020104e-04 3.16393507e-04
1.40180000e+11 3.37747664e-04 3.19229836e-04
1.41160000e+11 3.41486281e-04 3.22074214e-04
1.41253754e+11 3.41844526e-04 3.22346753e-04
1.42140000e+11 3.45235966e-04 3.24926695e-04
1.43120000e+11 3.48996732e-04 3.27787336e-04
1.44100000e+11 3.52768597e-04 3.30656191e-04
1.45080000e+11 3.56551577e-04 3.33533311e-04
1.46060000e+11 3.60345691e-04 3.36418748e-04
1.47040000e+11 3.64150961e-04 3.39312552e-04
1.48020000e+11 3.67967408e-04 3.42214771e-04
1.49000000e+11 3.71795056e-04 3.45125451e-04
1.49980000e+11 3.75633930e-04 3.48044637e-04
1.50960000e+11 3.79484056e-04 3.50972375e-04
1.51940000e+11 3.83345463e-04 3.53908707e-04
1.52920000e+11 3.87218180e-04 3.56853673e-04
1.53900000e+11 3.91102237e-04 3.59807315e-04
1.54880000e+11 3.94997666e-04 3.62769670e-04
1.55860000e+11 3.98904499e-04 3.65740777e-04
1.56840000e+11 4.02822770e-04 3.68720671e-04
1.57820000e+11 4.06752514e-04 3.71709387e-04
1.58489319e+11 4.09443058e-04 3.73755705e-04
1.58800000e+11 4.10693767e-04 3.74706960e-04
1.59780000e+11 4.14646566e-04 3.77713421e-04
1.60760000e+11 4.18610948e-04 3.80728802e-04
1.61740000e+11 4.22586953e-04 3.83753132e-04
1.62720000e+11 4.26574620e-04 3.86786441e-04
1.63700000e+11 4.30573989e-04 3.89828757e-04
1.64680000e+11 4.34585103e-04 3.92880106e-04
1.65660000e+11 4.38608002e-04 3.95940513e-04
1.66640000e+11 4.42642731e-04 3.99010002e-04
1.67620000e+11 4.46689331e-04 4.02088598e-04
1.68600000e+11 4.50747849e-04 4.05176321e-04
1.69580000e+11 4.54818329e-04 4.08273193e-04
1.70560000e+11 4.58900816e-04 4.11379234e-04
1.71540000e+11 4.62995357e-04 4.14494463e-04
1.72520000e+11 4.67101999e-04 4.17618898e-04
1.73500000e+11 4.71220788e-04 4.20752555e-04
1.74480000e+11 4.75351774e-04 4.23895451e-04
1.75460000e+11 4.79495005e-04 4.27047601e-04
1.76440000e+11 4.83650530e-04 4.30209017e-04
1.77420000e+11 4.87818397e-04 4.33379714e-04
1.77827941e+11 4.89556991e-04 4.34702306e-04
1.78400000e+11 4.91998659e-04 4.36559702e-04
1.79380000e+11 4.96191364e-04 4.39748995e-04
1.80360000e+11 5.00396564e-04 4.42947600e-04
1.81340000e+11 5.04614310e-04 4.46155528e-04
1.82320000e+11 5.08844655e-04 4.49372788e-04
1.83300000e+11 5.13087650e-04 4.52599385e-04
1.84280000e+11 5.17343347e-04 4.55835328e-04
1.85260000e+11 5.21611800e-04 4.59080621e-04
1.86240000e+11 5.25893063e-04 4.62335270e-04
1.87220000e+11 5.30187187e-04 4.65599279e-04
1.88200000e+11 5.34494228e-04 4.68872651e-04
1.89180000e+11 5.38814240e-04 4.72155388e-04
1.90160000e+11 5.43147277e-04 4.75447492e-04
1.91140000e+11 5.47493394e-04 4.78748963e-04
1.92120000e+11 5.51852646e-04 4.82059803e-04
1.93100000e+11 5.56225088e-04 4.85380010e-04
1.94080000e+11 5.60610776e-04 4.88709582e-04
1.95060000e+11 5.65009765e-04 4.92048518e-04
1.96040000e+11 5.69422112e-04 4.95396815e-04
1.97020000e+11 5.73847873e-04 4.98754468e-04
1.98000000e+11 5.78287104e-04 5.02121474e-04
1.98980000e+11 5.82739861e-04 5.05497827e-04
1.99526231e+11 5.85227627e-04 5.07383791e-04
1.99960000e+11 5.87206203e-04 5.08883522e-04
2.00940000e+11 5.91686184e-04 5.12278552e-04
2.01920000e+11 5.96179864e-04 5.15682911e-04
2.02900000e+11 6.00687298e-04 5.19096589e-04
2.03880000e+11 6.05208545e-04 5.22519579e-04
2.04860000e+11 6.09743662e-04 5.25951872e-04
2.05840000e+11 6.14292706e-04 5.29393458e-04
2.06820000e+11 6.18855736e-04 5.32844326e-04
2.07800000e+11 6.23432810e-04 5.36304466e-04
2.08780000e+11 6.28023986e-04 5.39773866e-04
2.09760000e+11 6.32629321e-04 5.43252513e-04
2.10740000e+11 6.37248874e-04 5.46740395e-04
2.11720000e+11 6.41882704e-04 5.50237499e-04
2.12700000e+11 6.46530869e-04 5.53743811e-04
2.13680000e+11 6.51193428e-04 5.57259315e-04
2.14660000e+11 6.55870439e-04 5.60783997e-04
2.15640000e+11 6.60561962e-04 5.64317841e-04
2.16620000e+11 6.65268054e-04 5.67860831e-04
2.17600000e+11 6.69988775e-04 5.71412950e-04
2.18580000e+11 6.74724184e-04 5.74974181e-04
2.19560000e+11 6.79474340e-04 5.78544505e-04
2.20540000e+11 6.84239301e-04 5.82123905e-04
2.21520000e+11 6.89019128e-04 5.85712361e-04
2.22500000e+11 6.93813878e-04 5.89309855e-04
2.23480000e+11 6.98623612e-04 5.92916366e-04
2.23872114e+11 7.00552274e-04 5.94361910e-04
2.24460000e+11 7.03448388e-04 5.96531873e-04
2.25440000e+11 7.08288267e-04 6.00156356e-04
2.26420000e+11 7.13143306e-04 6.03789793e-04
2.27400000e+11 7.18013566e-04 6.07432163e-04
2.28380000e+11 7.22899105e-04 6.11083443e-04
2.29360000e+11 7.27799984e-04 6.14743609e-04
2.30340000e+11 7.32716261e-04 6.18412640e-04
2.31320000e+11 7.37647997e-04 6.22090511e-04
2.32300000e+11 7.42595249e-04 6.25777197e-04
2.33280000e+11 7.47558079e-04 6.29472674e-04
2.34260000e+11 7.52536545e-04 6.33176918e-04
2.35240000e+11 7.57530706e-04 6.36889901e-04
2.36220000e+11 7.62540623e-04 6.40611599e-04
2.37200000e+11 7.67566354e-04 6.44341984e-04
2.38180000e+11 7.72607959e-04 6.48081031e-04
2.39160000e+11 7.77665498e-04 6.51828710e-04
2.40140000e+11 7.82739030e-04 6.55584996e-04
2.41120000e+11 7.87828614e-04 6.59349859e-04
2.42100000e+11 7.92934309e-04 6.63123272e-04
2.43080000e+11 7.98056176e-04 6.66905204e-04
2.44060000e+11 8.03194274e-04 6.70695627e-04
2.45040000e+11 8.08348661e-04 6.74494511e-04
2.46020000e+11 8.13519397e-04 6.78301825e-04
2.47000000e+11 8.18706542e-04 6.82117540e-04
2.47980000e+11 8.23910155e-04 6.85941624e-04
2.48960000e+11 8.29130296e-04 6.89774046e-04
2.49940000e+11 8.34367022e-04 6.93614773e-04
2.50920000e+11 8.39620395e-04 6.97463775e-04
2.51188643e+11 8.41063394e-04 6.98520326e-04
2.51900000e+11 8.44890472e-04 7.01321018e-04
2.52880000e+11 8.50177313e-04 7.05186470e-04
2.53860000e+11 8.55480978e-04 7.09060097e-04
2.54840000e+11 8.60801525e-04 7.12941867e-04
2.55820000e+11 8.66139013e-04 7.16831743e-04
2.56800000e+11 8.71493502e-04 7.20729694e-04
2.57780000e+11 8.76865051e-04 7.24635683e-04
2.58760000e+11 8.82253718e-04 7.28549676e-04
2.59740000e+11 8.87659563e-04 7.32471638e-04
2.60720000e+11 8.93082645e-04 7.36401533e-04
2.61700000e+11 8.98523021e-04 7.40339324e-04
2.62680000e+11 9.03980752e-04 7.44284975e-04
2.63660000e+11 9.09455896e-04 7.48238450e-04
2.64640000e+11 9.14948512e-04 7.52199712e-04
2.65620000e+11 9.20458659e-04 7.56168722e-04
2.66600000e+11 9.25986395e-04 7.60145444e-04
2.67580000e+11 9.31531778e-04 7.64129839e-04
2.68560000e+11 9.37094868e-04 7.68121868e-04
2.69540000e+11 9.42675724e-04 7.72121494e-04
2.70520000e+11 9.48274403e-04 7.76128677e-04
2.71500000e+11 9.53890964e-04 7.80143377e-04
2.72480000e+11 9.59525466e-04 7.84165555e-04
2.73460000e+11 9.65177966e-04 7.88195172e-04
2.74440000e+11 9.70848524e-04 7.92232185e-04
2.75420000e+11 9.76537198e-04 7.96276556e-04
2.76400000e+11 9.82244045e-04 8.00328242e-04
2.77380000e+11 9.87969124e-04 8.04387203e-04
2.78360000e+11 9.93712494e-04 8.08453397e-04
2.79340000e+11 9.99474212e-04 8.12526782e-04
2.80320000e+11 1.00525434e-03 8.16607316e-04
2.81300000e+11 1.01105292e-03 8.20694956e-04
2.81838293e+11 1.01424584e-03 8.22943218e-04
2.82280000e+11 1.01687004e-03 8.24789660e-04
2.83260000e+11 1.02270573e-03 8.28891385e-04
2.84240000e+11 1.02856006e-03 8.33000087e-04
2.85220000e+11 1.03443308e-03 8.37115722e-04
2.86200000e+11 1.04032486e-03 8.41238246e-04
2.87180000e+11 1.04623545e-03 8.45367616e-04
2.88160000e+11 1.05216491e-03 8.49503786e-04
2.89140000e+11 1.05811330e-03 8.53646711e-04
2.90120000e+11 1.06408067e-03 8.57796347e-04
2.91100000e+11 1.07006708e-03 8.61952648e-04
2.92080000e+11 1.07607259e-03 8.66115568e-04
2.93060000e+11 1.08209726e-03 8.70285062e-04
2.94040000e+11 1.08814114e-03 8.74461082e-04
2.95020000e+11 1.09420429e-03 8.78643582e-04
2.96000000e+11 1.10028678e-03 8.82832516e-04
2.96980000e+11 1.10638864e-03 8.87027836e-04
2.97960000e+11 1.11250995e-03 8.91229494e-04
2.98940000e+11 1.11865076e-03 8.95437443e-04
2.99920000e+11 1.12481113e-03 8.99651635e-04
3.00900000e+11 1.13099111e-03 9.03872022e-04
3.01880000e+11 1.13719076e-03 9.08098555e-04
3.02860000e+11 1.14341014e-03 9.12331184e-04
3.03840000e+11 1.14964930e-03 9.16569861e-04
3.04820000e+11 1.15590831e-03 9.20814537e-04
3.05800000e+11 1.16218721e-03 9.25065162e-04
3.06780000e+11 1.16848606e-03 9.29321685e-04
3.07760000e+11 1.17480493e-03 9.33584057e-04
3.08740000e+11 1.18114387e-03 9.37852227e-04
3.09720000e+11 1.18750292e-03 9.42126143e-04
3.10700000e+11 1.19388216e-03 9.46405756e-04
3.11680000e+11 1.20028164e-03 9.50691014e-04
3.12660000e+11 1.20670141e-03 9.54981864e-04
3.13640000e+11 1.21314153e-03 9.59278256e-04
3.14620000e+11 1.21960205e-03 9.63580136e-04
3.15600000e+11 1.22608303e-03 9.67887453e-04
3.16227766e+11 1.23024539e-03 9.70649456e-04
3.16580000e+11 1.23258454e-03 9.72200153e-04
3.17560000e+11 1.23910661e-03 9.76518185e-04
3.18540000e+11 1.24564932e-03 9.80841493e-04
3.19520000e+11 1.25221271e-03 9.85170026e-04
3.20500000e+11 1.25879684e-03 9.89503729e-04
3.21480000e+11 1.26540177e-03 9.93842547e-04
3.22460000e+11 1.27202755e-03 9.98186428e-04
3.23440000e+11 1.27867424e-03 1.00253532e-03
3.24420000e+11 1.28534190e-03 1.00688915e-03
3.25400000e+11 1.29203057e-03 1.01124789e-03
3.26380000e+11 1.29874032e-03 1.01561147e-03
3.27360000e+11 1.30547120e-03 1.01997983e-03
3.28340000e+11 1.31222326e-03 1.02435293e-03
3.29320000e+11 1.31899657e-03 1.02873069e-03
3.30300000e+11 1.32579117e-03 1.03311308e-03
3.31280000e+11 1.33260712e-03 1.03750002e-03
3.32260000e+11 1.33944448e-03 1.04189147e-03
3.33240000e+11 1.34630330e-03 1.04628736e-03
3.34220000e+11 1.35318364e-03 1.05068764e-03
3.35200000e+11 1.36008555e-03 1.05509226e-03
3.36180000e+11 1.36700908e-03 1.05950114e-03
3.37160000e+11 1.37395430e-03 1.06391424e-03
3.38140000e+11 1.38092125e-03 1.06833149e-03
3.39120000e+11 1.38790999e-03 1.07275284e-03
3.40100000e+11 1.39492058e-03 1.07717823e-03
3.41080000e+11 1.40195307e-03 1.08160759e-03
3.42060000e+11 1.40900751e-03 1.08604087e-03
3.43040000e+11 1.41608396e-03 1.09047801e-03
3.44020000e+11 1.42318247e-03 1.09491895e-03
